
**** 02/17/19 09:37:03 ******* PSpice Lite (March 2016) ******* ID# 10813 ****

 ** Profile: "SCHEMATIC1-bias"  [ C:\Users\Avery Peiffer\Desktop\homework4-pspicefiles\schematic1\bias.sim ] 


 ****     CIRCUIT DESCRIPTION


******************************************************************************




** Creating circuit file "bias.cir" 
** WARNING: THIS AUTOMATICALLY GENERATED FILE MAY BE OVERWRITTEN BY SUBSEQUENT SIMULATIONS

*Libraries: 
* Profile Libraries :
* Local Libraries :
.LIB "../../../homework4-pspicefiles/homework4.lib" 
* From [PSPICE NETLIST] section of C:\Users\Avery Peiffer\AppData\Roaming\SPB_Data\cdssetup\OrCAD_PSpice\17.2.0\PSpice.ini file:
.lib "nomd.lib" 

*Analysis directives: 
.TRAN  0 100ms 0 .5ms 
.OPTIONS ADVCONV
.PROBE64 V(alias(*)) I(alias(*)) W(alias(*)) D(alias(*)) NOISE(alias(*)) 
.INC "..\SCHEMATIC1.net" 



**** INCLUDING SCHEMATIC1.net ****
* source HOMEWORK4
X_TX1    N14584 0 RECT_IN N14653 SCHEMATIC1_TX1 
V_V1         AC_LINE 0  
+SIN 0 169.7056275 60 0 0 0
R_R1         AC_LINE N14584  1 TC=0,0 
R_R2         0 N14653  100M TC=0,0 
X_D1         RECT_IN FILTER_OUT awb1n4002 PARAMS:                
C_C1         0 FILTER_OUT  1.6667m  TC=0,0 
R_R7         FILTER_OUT LOAD_OUT  500 TC=0,0 
X_D4         0 LOAD_OUT awb1n4733 PARAMS:               
R_R8         0 LOAD_OUT  500 TC=0,0 

.subckt SCHEMATIC1_TX1 1 2 3 4  
K_TX1         L1_TX1 L2_TX1 1
L1_TX1         1 2 2H
L2_TX1         3 4 27.2mH
.ends SCHEMATIC1_TX1

**** RESUMING bias.cir ****
.END

**** 02/17/19 09:37:03 ******* PSpice Lite (March 2016) ******* ID# 10813 ****

 ** Profile: "SCHEMATIC1-bias"  [ C:\Users\Avery Peiffer\Desktop\homework4-pspicefiles\schematic1\bias.sim ] 


 ****     Diode MODEL PARAMETERS


******************************************************************************




               X_D1.model22    
          IS  148.800000E-09 
           N    2.21         
          BV  200            
         IBV    1            
          RS     .03         
          TT    1.440000E-06 
         CJO   23.130000E-12 
          VJ     .5          
           M     .421        
          EG    1.11         


**** 02/17/19 09:37:03 ******* PSpice Lite (March 2016) ******* ID# 10813 ****

 ** Profile: "SCHEMATIC1-bias"  [ C:\Users\Avery Peiffer\Desktop\homework4-pspicefiles\schematic1\bias.sim ] 


 ****     INITIAL TRANSIENT SOLUTION       TEMPERATURE =   27.000 DEG C


******************************************************************************



 NODE   VOLTAGE     NODE   VOLTAGE     NODE   VOLTAGE     NODE   VOLTAGE


(N14584)    0.0000 (N14653) 595.0E-18 (AC_LINE)    0.0000                       

(RECT_IN) 595.0E-18                   (LOAD_OUT) 2.289E-09                      

(FILTER_OUT) 2.286E-09                (X_D4.xinst1n4733.1)   -4.5892            

(X_D4.xinst1n4733.3)    4.5892        (X_D4.xinst1n4733.9)-30.67E-15        




    VOLTAGE SOURCE CURRENTS
    NAME         CURRENT

    V_V1         0.000E+00

    TOTAL POWER DISSIPATION   0.00E+00  WATTS



          JOB CONCLUDED

**** 02/17/19 09:37:03 ******* PSpice Lite (March 2016) ******* ID# 10813 ****

 ** Profile: "SCHEMATIC1-bias"  [ C:\Users\Avery Peiffer\Desktop\homework4-pspicefiles\schematic1\bias.sim ] 


 ****     JOB STATISTICS SUMMARY


******************************************************************************



  Total job time (using Solver 1)   =         .14
